 ****** HSPICE -- J-2014.09-SP2-2 64-BIT (Apr 17 2015) win64 ******             
  Copyright (C) 2014 Synopsys, Inc. All Rights Reserved.                        
  Unpublished-rights reserved under US copyright laws.
  This program is protected by law and is subject to the
  terms and conditions of the license agreement from Synopsys.
  Use of this program is your acceptance to be bound by the
  license agreement. HSPICE is the trademark of Synopsys, Inc.
  Input File: full adder.sp                                                     
  Command line options: -i full adder.sp -o full adder.lis
  lic:  
  lic: FLEXlm: v10.9.8 
  lic: USER:   ASUS                 HOSTNAME: LAPTOP-A6DHPUDS 
  lic: HOSTID: "046c59f85f60 005056c00001 005056c00008 046c59f85f5c 046c59f85f5d
  066c59f85f5c" PID:  
  lic: Using FLEXlm license file: 
  lic: 27000@LAPTOP-A6DHPUDS 
  lic: Checkout 1 hspice 
  lic: License/Maintenance for hspice will expire on 30-dec-2030/2019.2019 
  lic: 1(in_use)/99(total) FLOATING license(s) on SERVER 27000@LAPTOP-A6DHPUDS 
  lic:   
 Init: read install configuration file: C:\synopsys\Hspice_J-2014.09-SP2-2\meta.cfg
 **warning** unexpected value for post
1****** HSPICE -- J-2014.09-SP2-2 64-BIT (Apr 17 2015) win64 ******             
 ******  
 

 ****** mos   model parameters tnom=  25.000 temp=  25.000 ******
 Model Name: nmos  
 BSIM4 Model (Level 54)
    MOBMOD = 0
    BINUNIT = 1
    PARAMCHK = 1
    CAPMOD = 2
    DIOMOD = 1
    RDSMOD = 0
    TRNQSMOD = 0
    ACNQSMOD = 0
    RBODYMOD = 1
    RGATEMOD = 1
    PERMOD = 1
    GEOMOD = 1
    RGEOMOD = 0
    FNOIMOD = 1
    TNOIMOD = 0
    IGCMOD = 1
    IGBMOD = 1
    STIMOD = 0
    VERSION =      4 
    TOXREF = 1.4e-009 
    TOXE = 1.4e-009 
    TOXP = 8e-010 
    TOXM = 1.4e-009 
    DTOX = 6e-010 
    EPSROX =    3.9 
    CDSC =   0.07 
    CDSCB =      0 
    CDSCD =   0.02 
    CIT =      0 
    NFACTOR =    1.5 
    XJ = 5e-008 
    VSAT = 2.5e+005 
    A0 =      0 
    AGS =      0 
    A1 =      0 
    A2 =      1 
    AT = 5.3e+004 
    KETA =      0 
    NSUB = 6e+016 
    NDEP = 4.1e+018 
    NSD = 2e+020 
    NGATE = 5e+020 
    GAMMA1 =      0 
    GAMMA2 =      0 
    VBX =      0 
    VBM =     -3 
    XT = 1.55e-007 
    K1 =    0.5 
    KT1 =  -0.37 
    KT1L =      0 
    KT2 = -0.042 
    K2 =   0.05 
    K3 =      0 
    K3B =      0 
    LPE0 =      0 
    LPEB =      0 
    DVTP0 =      0 
    DVTP1 =      0 
    W0 =      0 
    DVT0 =      1 
    DVT1 =   0.95 
    DVT2 =      0 
    DVT0W =      0 
    DVT1W =      0 
    DVT2W =      0 
    DROUT =   0.45 
    DSUB =   0.36 
    VTH0 = 0.4225 
    EU =   1.67 
    UA = 6e-010 
    UA1 = 1e-009 
    UB = 1.3e-018 
    UB1 = -3.5e-019 
    UC =     -0 
    UC1 =      0 
    U0 =  0.039 
    UTE =   -1.5 
    VOFF =  -0.09 
    VOFFL =      0 
    MINV =      0 
    FPROUT =      0 
    PDITS =   0.12 
    PDITSD =      0 
    PDITSL =      0 
    DELTA = 0.0189 
    RDSW =    200 
    RDSWMIN =      0 
    RDWMIN =      0 
    RSWMIN =      0 
    RDW =    100 
    RSW =    100 
    PRWG =      0 
    PRWB =      0 
    PRT =      0 
    ETA0 =  0.035 
    ETAB =      0 
    PCLM =  0.001 
    PDIBLC1 =      0 
    PDIBLC2 = 1e-009 
    PDIBLCB =      0 
    PSCBE1 =      0 
    PSCBE2 = 1e-010 
    PVAG =      0 
    WR =      1 
    DWG =      0 
    DWB =      0 
    XW =      0 
    XWREF =      0 
    XL =      0 
    XLREF =      0 
    B0 =      0 
    B1 =      0 
    ALPHA0 =  0.074 
    ALPHA1 =  0.005 
    AGIDL = 0.0002 
    BGIDL = 2.1e+009 
    CGIDL = 0.0002 
    PHIN =      0 
    EGIDL =    0.8 
    AIGC =  0.012 
    BIGC = 0.0028 
    CIGC =  0.002 
    AIGSD =  0.012 
    BIGSD = 0.0028 
    CIGSD =  0.002 
    AIGBACC =  0.012 
    BIGBACC = 0.0028 
    CIGBACC =  0.002 
    AIGBINV =  0.014 
    BIGBINV =  0.004 
    CIGBINV =  0.004 
    NIGC = 1e-008 
    NIGBINV = 1e-008 
    NIGBACC = 1e-008 
    NTOX =      1 
    EIGBINV =    1.1 
    PIGCD =      1 
    POXEDGE =      1 
    XRCRG1 =     12 
    TNOIA =    1.5 
    TNOIB =    3.5 
    NTNOI =      1 
    XRCRG2 =      5 
    BETA0 =     30 
    IJTHDFWD =   0.01 
    IJTHSFWD =   0.01 
    IJTHDREV =  0.001 
    IJTHSREV =  0.001 
    XJBVD =      1 
    XJBVS =      1 
    BVD =     10 
    BVS =     10 
    VFB = -1.043 
    GBMIN = 1e-010 
    RBDB =     15 
    RBPB =      5 
    RBSB =     15 
    RBPS =     15 
    RBPD =     15 
    CGSL = 2.495e-010 
    CGDL = 2.495e-010 
    CKAPPAS =   0.01 
    CKAPPAD =   0.01 
    CF = 1.244e-010 
    CLC = 1e-007 
    CLE =    0.6 
    DWC =      0 
    DLC = 8.5e-009 
    DLCIG = 8.5e-009 
    DWJ =      0 
    VFBCV =     -1 
    ACDE =      1 
    MOIN =     15 
    NOFF =    0.9 
    VOFFCV =   0.02 
    DMCG =      0 
    DMCI =      0 
    DMDG =      0 
    DMCGT =      0 
    XGW =      0 
    XGL =      0 
    RSHG =    0.4 
    NGCON =      1 
    TCJ =  0.001 
    TPB =  0.005 
    TCJSW =  0.001 
    TPBSW =  0.005 
    TCJSWG =  0.001 
    TPBSWG =  0.005 
    SK0 =      0 
    SK1 =      0 
    SK2 =      0 
    SL = 2e-006 
    SW = 2e-006 
    K =      0 
    TNOM =  300.1 
    CGSO = 2.1e-010 
    CGDO = 2.1e-010 
    CGBO = 2.56e-011 
    XPART =      0 
    RSH =      0 
    JSS = 0.0001 
    JSWS = 1e-011 
    JSWGS = 1e-010 
    PBS =      1 
    MJS =    0.5 
    PBSWS =      1 
    MJSWS =   0.33 
    CJS = 0.0005 
    CJSWS = 5e-010 
    NJS =      1 
    PBSWGS =      1 
    MJSWGS =   0.33 
    CJSWGS = 3e-010 
    XTIS =      3 
    JSD = 0.0001 
    JSWD = 1e-011 
    JSWGD = 1e-010 
    PBD =      1 
    MJD =    0.5 
    PBSWD =      1 
    MJSWD =   0.33 
    CJD = 0.0005 
    CJSWD = 5e-010 
    NJD =      1 
    PBSWGD =      1 
    MJSWGD =   0.33 
    CJSWGD = 5e-010 
    XTID =      3 
    LMLT =      1 
    WMLT =      1 
    LINT = 8.5e-009 
    LL =      0 
    LLC =      0 
    LLN =      1 
    LW =      0 
    LWC =      0 
    LWN =      1 
    LWL =      0 
    LWLC =      0 
    LMIN =      0 
    LMAX =      1 
    WINT =      0 
    WL =      0 
    WLC =      0 
    WLN =      1 
    WW =      0 
    WWC =      0 
    WWN =      1 
    WWL =      0 
    WWLC =      0 
    WMIN =      0 
    WMAX =      1 
    NOIA = 6.25e+041 
    NOIB = 3.125e+026 
    NOIC = 8.75e+009 
    EM = 4.1e+007 
    EF =      1 
    AF =      1 
    KF =      0 
    TRS =      0 
    TRD =      0 
 Model Name: pmos  
 BSIM4 Model (Level 54)
    MOBMOD = 0
    BINUNIT = 1
    PARAMCHK = 1
    CAPMOD = 2
    DIOMOD = 1
    RDSMOD = 0
    TRNQSMOD = 0
    ACNQSMOD = 0
    RBODYMOD = 1
    RGATEMOD = 1
    PERMOD = 1
    GEOMOD = 1
    RGEOMOD = 0
    FNOIMOD = 1
    TNOIMOD = 0
    IGCMOD = 1
    IGBMOD = 1
    STIMOD = 0
    VERSION =      4 
    TOXREF = 1.5e-009 
    TOXE = 1.5e-009 
    TOXP = 8e-010 
    TOXM = 1.5e-009 
    DTOX = 7e-010 
    EPSROX =    3.9 
    CDSC =   0.05 
    CDSCB =      0 
    CDSCD =   0.02 
    CIT =      0 
    NFACTOR =    1.6 
    XJ = 1.5e-008 
    VSAT = 7.613e+004 
    A0 =      0 
    AGS =      0 
    A1 =      0 
    A2 =  0.999 
    AT = 3.3e+004 
    KETA =      0 
    NSUB = 6e+016 
    NDEP = 3.5e+018 
    NSD = 2e+020 
    NGATE = 5e+020 
    GAMMA1 =      0 
    GAMMA2 =      0 
    VBX =      0 
    VBM =     -3 
    XT = 1.55e-007 
    K1 =    0.5 
    KT1 =  -0.34 
    KT1L =      0 
    KT2 = -0.052 
    K2 =      0 
    K3 =      0 
    K3B =      0 
    LPE0 =      0 
    LPEB =      0 
    DVTP0 =      0 
    DVTP1 =      0 
    W0 = 2.5e-006 
    DVT0 =      1 
    DVT1 =   0.95 
    DVT2 =      0 
    DVT0W =      0 
    DVT1W =      0 
    DVT2W =      0 
    DROUT =   0.45 
    DSUB =   0.36 
    VTH0 = -0.4117 
    EU =      1 
    UA = 8e-010 
    UA1 = -1e-009 
    UB = 2.5e-018 
    UB1 = 2e-018 
    UC =      0 
    UC1 =      0 
    U0 = 0.01134 
    UTE =   -1.5 
    VOFF = -0.155 
    VOFFL =      0 
    MINV =      0 
    FPROUT =      0 
    PDITS =   0.15 
    PDITSD =      0 
    PDITSL =      0 
    DELTA =   0.04 
    RDSW =    300 
    RDSWMIN =      0 
    RDWMIN =      0 
    RSWMIN =      0 
    RDW =    150 
    RSW =    150 
    PRWG =      0 
    PRWB =      0 
    PRT =      0 
    ETA0 =  0.035 
    ETAB =      0 
    PCLM =  0.001 
    PDIBLC1 =      0 
    PDIBLC2 = 1e-007 
    PDIBLCB =      0 
    PSCBE1 =      0 
    PSCBE2 = 1e-010 
    PVAG =      0 
    WR =      1 
    DWG =      0 
    DWB =      0 
    XW =      0 
    XWREF =      0 
    XL =      0 
    XLREF =      0 
    B0 = -1e-020 
    B1 =      0 
    ALPHA0 =  0.074 
    ALPHA1 =  0.005 
    AGIDL = 0.0002 
    BGIDL = 2.1e+009 
    CGIDL = 0.0002 
    PHIN =      0 
    EGIDL =    0.8 
    AIGC =   0.69 
    BIGC = 0.0012 
    CIGC = 0.0008 
    AIGSD = 0.0087 
    BIGSD = 0.0012 
    CIGSD = 0.0008 
    AIGBACC =  0.012 
    BIGBACC = 0.0028 
    CIGBACC =  0.002 
    AIGBINV =  0.014 
    BIGBINV =  0.004 
    CIGBINV =  0.004 
    NIGC =      1 
    NIGBINV =      3 
    NIGBACC =      1 
    NTOX =      1 
    EIGBINV =    1.1 
    PIGCD =      1 
    POXEDGE =      1 
    XRCRG1 =     12 
    TNOIA =    1.5 
    TNOIB =    3.5 
    NTNOI =      1 
    XRCRG2 =      5 
    BETA0 =     30 
    IJTHDFWD =   0.01 
    IJTHSFWD =   0.01 
    IJTHDREV =  0.001 
    IJTHSREV =  0.001 
    XJBVD =      1 
    XJBVS =      1 
    BVD =     10 
    BVS =     10 
    VFB =  1.064 
    GBMIN = 1e-010 
    RBDB =     15 
    RBPB =      5 
    RBSB =     15 
    RBPS =     15 
    RBPD =     15 
    CGSL = 1e-014 
    CGDL = 1e-014 
    CKAPPAS =    0.5 
    CKAPPAD =    0.5 
    CF = 1.229e-010 
    CLC = 1e-007 
    CLE =    0.6 
    DWC =      0 
    DLC = 8.5e-009 
    DLCIG = 8.5e-009 
    DWJ =      0 
    VFBCV =     -1 
    ACDE =      1 
    MOIN =     15 
    NOFF =    0.9 
    VOFFCV =   0.02 
    DMCG =      0 
    DMCI =      0 
    DMDG =      0 
    DMCGT =      0 
    XGW =      0 
    XGL =      0 
    RSHG =    0.4 
    NGCON =      1 
    TCJ =  0.001 
    TPB =  0.005 
    TCJSW =  0.001 
    TPBSW =  0.005 
    TCJSWG =  0.001 
    TPBSWG =  0.005 
    SK0 =      0 
    SK1 =      0 
    SK2 =      0 
    SL = 2e-006 
    SW = 2e-006 
    K =      0 
    TNOM =  300.1 
    CGSO = 2.1e-010 
    CGDO = 2.1e-010 
    CGBO = 2.56e-011 
    XPART =      0 
    RSH =      0 
    JSS = 0.0001 
    JSWS = 1e-011 
    JSWGS = 1e-010 
    PBS =      1 
    MJS =    0.5 
    PBSWS =      1 
    MJSWS =   0.33 
    CJS = 0.0005 
    CJSWS = 5e-010 
    NJS =      1 
    PBSWGS =      1 
    MJSWGS =   0.33 
    CJSWGS = 3e-010 
    XTIS =      3 
    JSD = 0.0001 
    JSWD = 1e-011 
    JSWGD = 1e-010 
    PBD =      1 
    MJD =    0.5 
    PBSWD =      1 
    MJSWD =   0.33 
    CJD = 0.0005 
    CJSWD = 5e-010 
    NJD =      1 
    PBSWGD =      1 
    MJSWGD =   0.33 
    CJSWGD = 5e-010 
    XTID =      3 
    LMLT =      1 
    WMLT =      1 
    LINT = 8.5e-009 
    LL =      0 
    LLC =      0 
    LLN =      1 
    LW =      0 
    LWC =      0 
    LWN =      1 
    LWL =      0 
    LWLC =      0 
    LMIN =      0 
    LMAX =      1 
    WINT =      0 
    WL =      0 
    WLC =      0 
    WLN =      1 
    WW =      0 
    WWC =      0 
    WWN =      1 
    WWL =      0 
    WWLC =      0 
    WMIN =      0 
    WMAX =      1 
    NOIA = 6.188e+040 
    NOIB = 1.5e+025 
    NOIC = 8.75e+009 
    EM = 4.1e+007 
    EF =      1 
    AF =      1 
    KF =      0 
    TRS =      0 
    TRD =      0 
  **info** (full adder.sp:23) DC voltage reset to initial transient source value              in source        0:va                  new dc=  0.0000D+00
 **warning** (nmos:mn1) Warning:  Acde = 0.264278 may be too small in BSIM4 model with w=6.4e-008 l=3.2e-008.
  
      
 **info** set option symb=1 internally to help for convergence.
 *****************************************************************
 ******  option summary
 ******
 runlvl  = 3         bypass  = 2         
 **info** dc convergence successful at Newton-Raphson method 
1****** HSPICE -- J-2014.09-SP2-2 64-BIT (Apr 17 2015) win64 ******             
 ******  
 

 ****** operating point information tnom=  25.000 temp=  25.000 ******
 ****** operating point status is all       simulation time is     0.     
    node    =voltage      node    =voltage      node    =voltage

 +0:1       =   1.0000  0:2       =   0.      0:3       =   0.     
 +0:4       =   0.      0:5       =  37.2589m 0:6       =   5.6540u
 +0:7       = 807.6670m 0:8       = 551.8699m 0:9       =  92.6489m


 **** voltage sources

 subckt                                              
 element  0:va       0:vb       0:vc       0:vdd     
  volts      0.         0.         0.         1.0000 
  current   21.1854u   17.4661n    5.0453u  -36.5062u
  power      0.         0.         0.        36.5062u

     total voltage source power dissipation=   36.5062u       watts




 **** mosfets


 subckt                                                                    
 element  0:mp1      0:mp2      0:mp3      0:mp4      0:mp5      0:mp6     
 model    0:pmos     0:pmos     0:pmos     0:pmos     0:pmos     0:pmos    
 region       Linear     Linear     Cutoff     Cutoff     Cutoff   Saturati
  id       -26.2528u  -26.2311u  685.7572p  -14.1376n  916.9606p  -10.2532u
  ibs     -2.883e-23 -1.301e-24   19.8550a -6.025e-26  6.555e-26 -9.852e-25
  ibd      202.3274f  265.7966f  -21.1728u   64.2320f  -69.8996f  917.3511f
  vgs       -1.0000  -807.6670m  807.6670m  -92.6489m   92.6489m -448.1301m
  vds     -192.3330m -255.7971m  551.8699m  -55.3900m   37.2589m -907.3511m
  vbs        0.         0.         0.         0.         0.         0.     
  vth     -328.3503m -322.2840m -201.6666m -341.4400m -335.1980m -260.0050m
  vdsat   -457.6351m -344.2750m  -44.0978m  -46.4036m  -45.6144m -150.2423m
  vod     -671.6497m -485.3829m    1.0093   248.7911m  427.8468m -188.1251m
  beta     666.7251u  787.6205u    1.1854m  881.9874u  891.6630u    1.1393m
  gam eff  500.0000m  500.0000m  500.0000m  500.0000m  500.0000m  500.0000m
  gm        18.4335u   43.2431u   12.3071n  245.0916n   16.5871n   78.1562u
  gds      111.6380u   63.9231u    1.7246n  146.2762n   16.9725n    7.9963u
  gmb        7.9994u   13.9567u    1.5248n   56.3423n    3.3983n   21.7829u
  cdtot     77.8333a   71.3816a   82.9659a   74.0849a   75.4196a   65.3062a
  cgtot    106.5759a  104.2604a   77.9162a   71.0823a   72.0856a   96.7643a
  cstot    126.3885a  126.6323a  101.8151a  101.8706a  101.8161a  122.2356a
  cbtot    123.8701a  122.9515a  132.0083a  127.0941a  128.5570a  118.2599a
  cgs       76.0915a   74.9100a   29.9596a   30.0290a   29.9597a   64.9404a
  cgd       28.6830a   26.9786a   40.8092a   29.9539a   30.8823a   27.3813a



 subckt                                                                    
 element  0:mp7      0:mp8      0:mn1      0:mn2      0:mn3      0:mn4     
 model    0:pmos     0:pmos     0:nmos     0:nmos     0:nmos     0:nmos    
 region       Cutoff     Cutoff     Cutoff     Cutoff     Cutoff     Cutoff
  id        18.5335a   85.7614f   17.6358n   10.8566n   10.8566n  -36.9388n
  ibs        0.         0.       7.669e-25  5.269e-25  5.269e-25   -4.6808a
  ibd       -7.8549a   -7.8549a -817.6670f -561.8699f -561.8699f    4.9919u
  vgs      551.8699m   92.6489m    0.         0.         0.      -551.8699m
  vds        5.6540u    5.6540u  807.6670m  551.8699m  551.8699m -514.6110m
  vbs        0.         0.         0.         0.         0.         0.     
  vth     -346.7327m -346.7327m  302.2025m  323.2376m  323.2376m  210.6019m
  vdsat    -45.6692m  -45.6954m   45.0628m   45.1668m   45.1668m   44.5223m
  vod      898.6026m  439.3816m -302.2025m -323.2376m -323.2376m -762.4718m
  beta     869.1824u  869.3820u    4.3697m    4.2213m    4.2213m    5.0517m
  gam eff  500.0000m  500.0000m  500.0000m  500.0000m  500.0000m  500.0000m
  gm       341.5433a    1.5616p  282.8699n  179.4059n  179.4059n  643.6648n
  gds        3.2778p   15.1677n   32.5673n   21.1593n   21.1593n   67.9616n
  gmb       51.9823a  325.4002f   73.4427n   46.3027n   46.3027n  121.7920n
  cdtot     74.8698a   74.8706a   49.3876a   51.3968a   51.3968a   67.7855a
  cgtot     77.0479a   72.0938a   62.9898a   63.6286a   63.6286a   64.8946a
  cstot    101.8157a  101.8174a   82.5020a   82.4864a   82.4864a   74.8353a
  cbtot    133.8938a  128.9385a   85.9780a   87.3279a   87.3279a   92.9907a
  cgs       29.9597a   29.9604a   31.3480a   31.3228a   31.3228a   23.7337a
  cgd       29.9605a   29.9614a   23.0777a   23.7380a   23.7380a   36.5862a



 subckt                                              
 element  0:mn5      0:mn6      0:mn7      0:mn8     
 model    0:nmos     0:nmos     0:nmos     0:nmos    
 region       Linear     Linear     Cutoff     Linear
  id         5.0427u   10.2396u    3.1622p  858.8090p
  ibs      4.261e-26  9.966e-26    0.         0.     
  ibd      -44.9137f -102.3773f   -7.8544a   -7.8544a
  vgs      551.8699m  551.8699m   92.6489m  551.8699m
  vds       37.2589m   92.6489m    5.6540u    5.6540u
  vbs        0.         0.         0.         0.     
  vth      365.5558m  361.0009m  368.6193m  368.6193m
  vdsat    126.6994m  128.7873m   45.5663m  125.3035m
  vod      186.3140m  190.8689m -275.9704m  183.2506m
  beta       3.6003m    3.6188m    3.9135m    3.5878m
  gam eff  500.0000m  500.0000m  500.0000m  500.0000m
  gm        23.5625u   62.2322u   54.3159p    3.3116n
  gds      118.4946u   70.2401u  559.2584n  151.8927u
  gmb        8.4775u   21.7696u   14.9841p    1.2216n
  cdtot     77.8796a   68.8259a   65.4498a   98.4753a
  cgtot    103.2935a  102.4630a   75.0556a  104.5701a
  cstot    101.8822a  104.3127a   84.5741a   93.0241a
  cbtot     90.4913a   89.2272a   91.2486a   92.0229a
  cgs       64.1219a   66.1290a   33.3822a   58.1123a
  cgd       38.3998a   35.3513a   33.4742a   46.0379a



 ******  
 

 ****** transient analysis tnom=  25.000 temp=  25.000 ******
x

        time    voltage      voltage    
                     5            6     
    0.           37.2589m      5.6540u  
    1.00000n    490.9133m    498.2465m  
    2.00000n    733.2827m      1.0001   
    3.00000n    732.8649m    999.9735m  
    4.00000n    732.8649m    999.9735m  
    5.00000n    732.8432m    999.9669m  
    6.00000n    732.8469m    999.9680m  
    7.00000n    732.8556m    999.9707m  
    8.00000n    732.8643m    999.9733m  
    9.00000n    732.8730m    999.9759m  
   10.00000n    732.8802m    999.9781m  
   11.00000n    732.8768m    999.9771m  
   12.00000n    732.8733m    999.9760m  
   13.00000n    732.8699m    999.9750m  
   14.00000n    732.8665m    999.9739m  
   15.00000n    732.8630m    999.9729m  
   16.00000n    732.8596m    999.9719m  
   17.00000n    732.8562m    999.9708m  
   18.00000n    732.8527m    999.9698m  
   19.00000n    732.8493m    999.9687m  
   20.00000n    732.8459m    999.9677m  
   21.00000n    732.8424m    999.9667m  
   22.00000n    732.8402m    999.9660m  
   23.00000n    732.8418m    999.9665m  
   24.00000n    732.8435m    999.9670m  
   25.00000n    732.8451m    999.9675m  
   26.00000n    732.8468m    999.9680m  
   27.00000n    732.8485m    999.9685m  
   28.00000n    732.8501m    999.9690m  
   29.00000n    732.8518m    999.9695m  
   30.00000n    732.8534m    999.9700m  
