 ****** HSPICE -- J-2014.09-SP2-2 64-BIT (Apr 17 2015) win64 ******             
  Copyright (C) 2014 Synopsys, Inc. All Rights Reserved.                        
  Unpublished-rights reserved under US copyright laws.
  This program is protected by law and is subject to the
  terms and conditions of the license agreement from Synopsys.
  Use of this program is your acceptance to be bound by the
  license agreement. HSPICE is the trademark of Synopsys, Inc.
  Input File: tadder.sp                                                         
  Command line options: -i tadder.sp -o tadder.lis
  lic:  
  lic: FLEXlm: v10.9.8 
  lic: USER:   Sneha Sharma         HOSTNAME: DESKTOP-RRQMT9M 
  lic: HOSTID: "14857f08ef6b 00ff8cded52f 14857f08ef67 14857f08ef68 16857f08ef67
 " PID:      14080 
  lic: Using FLEXlm license file: 
  lic: 27000@DESKTOP-RRQMT9M 
  lic: Checkout 1 hspice 
  lic: License/Maintenance for hspice will expire on 30-dec-2030/2019.2019 
  lic: 1(in_use)/99(total) FLOATING license(s) on SERVER 27000@DESKTOP-RRQMT9M 
  lic:   
 Init: read install configuration file: C:\synopsys\Hspice_J-2014.09-SP2-2\meta.cfg
 **warning** unexpected value for post
  **warning** (tadder.sp:49) Syntax error while using .print/.probe, missing output variable. Line ignored.
1****** HSPICE -- J-2014.09-SP2-2 64-BIT (Apr 17 2015) win64 ******             
 ******  
 

 ****** circuit name directory
 circuit number to circuit name directory
   number circuitname                     definition         multiplier
        0 main circuit
  **info** (tadder.sp:40) DC voltage reset to initial transient source value              in source        0:va                  new dc=  0.0000D+00
  
      
  **warning** PIVOT option setting is simplified, pivot = 13 is obsolete,
              automatically switch to pivot = 1.
 *****************************************************************
 ******  option summary
 ******
 runlvl  = 3         bypass  = 2         
  Opening plot unit= 79
 file=tadder.pa0

 no convergence with standard algorithm,  trying damped pseudo-transient

  *** pseudo tran succeeded *** 
1****** HSPICE -- J-2014.09-SP2-2 64-BIT (Apr 17 2015) win64 ******             
 ******  
 

 ****** operating point information tnom=  25.000 temp=  25.000 ******
 ****** operating point status is all       simulation time is   0.000e+00
     node    =voltage       node    =voltage       node    =voltage

 + 0:5       =-5.391e-08  0:6       =-3.489e-08  0:8       = 1.000e-00


 **** voltage sources

 subckt                                                  
 element   0:va        0:vb        0:vc        0:vdd     
  volts     0.000e+00   0.000e+00   0.000e+00   1.000e+00
  current  -9.293e-13  -1.983e-12  -3.902e-13  -3.137e-11
  power     0.000e+00   0.000e+00   0.000e+00   3.137e-11

     total voltage source power dissipation=  3.137e-11       watts


 ******  
 

 ****** transient analysis tnom=  25.000 temp=  25.000 ******
x

        time    voltage      voltage      voltage      voltage    
                     2            3            4            5     
  0.0000e+00    0.000e+00    0.000e+00    0.000e+00    0.000e+00  
  1.0000e-09    5.000e-01    5.000e-01    5.000e-01    4.981e-01  
  2.0000e-09    1.000e+00    1.000e+00    1.000e+00    9.999e-01  
  3.0000e-09    1.000e+00    1.000e+00    1.000e+00    1.000e-00  
  4.0000e-09    1.000e+00    1.000e+00    1.000e+00    1.000e-00  
  5.0000e-09    1.000e+00    1.000e+00    1.000e+00    1.000e-00  
  6.0000e-09    1.000e+00    1.000e+00    1.000e+00    1.000e-00  
  7.0000e-09    1.000e+00    1.000e+00    1.000e+00    1.000e-00  
  8.0000e-09    1.000e+00    1.000e+00    1.000e+00    1.000e-00  
  9.0000e-09    1.000e+00    1.000e+00    1.000e+00    1.000e-00  
  1.0000e-08    1.000e+00    1.000e+00    1.000e+00    1.000e-00  
  1.1000e-08    1.000e+00    1.000e+00    1.000e+00    1.000e-00  
  1.2000e-08    1.000e+00    1.000e+00    1.000e+00    1.000e-00  
  1.3000e-08    1.000e+00    1.000e+00    1.000e+00    1.000e-00  
  1.4000e-08    1.000e+00    1.000e+00    1.000e+00    1.000e-00  
  1.5000e-08    1.000e+00    1.000e+00    1.000e+00    1.000e-00  
  1.6000e-08    1.000e+00    1.000e+00    1.000e+00    1.000e-00  
  1.7000e-08    1.000e+00    1.000e+00    1.000e+00    1.000e-00  
  1.8000e-08    1.000e+00    1.000e+00    1.000e+00    1.000e-00  
  1.9000e-08    1.000e+00    1.000e+00    1.000e+00    1.000e-00  
  2.0000e-08    1.000e+00    1.000e+00    1.000e+00    1.000e-00  
  2.1000e-08    1.000e+00    1.000e+00    1.000e+00    1.000e-00  
  2.2000e-08    1.000e+00    1.000e+00    1.000e+00    1.000e-00  
  2.3000e-08    1.000e+00    1.000e+00    1.000e+00    1.000e-00  
  2.4000e-08    1.000e+00    1.000e+00    1.000e+00    1.000e-00  
  2.5000e-08    1.000e+00    1.000e+00    1.000e+00    1.000e-00  
  2.6000e-08    1.000e+00    1.000e+00    1.000e+00    1.000e-00  
  2.7000e-08    1.000e+00    1.000e+00    1.000e+00    1.000e-00  
  2.8000e-08    1.000e+00    1.000e+00    1.000e+00    1.000e-00  
  2.9000e-08    1.000e+00    1.000e+00    1.000e+00    1.000e-00  
  3.0000e-08    1.000e+00    1.000e+00    1.000e+00    1.000e-00  
  3.1000e-08    1.000e+00    1.000e+00    1.000e+00    1.000e-00  
  3.2000e-08    1.000e+00    1.000e+00    1.000e+00    1.000e-00  
  3.3000e-08    1.000e+00    1.000e+00    1.000e+00    1.000e-00  
  3.4000e-08    1.000e+00    1.000e+00    1.000e+00    1.000e-00  
  3.5000e-08    1.000e+00    1.000e+00    1.000e+00    1.000e-00  
  3.6000e-08    1.000e+00    1.000e+00    1.000e+00    1.000e-00  
  3.7000e-08    1.000e+00    1.000e+00    1.000e+00    1.000e-00  
  3.8000e-08    1.000e+00    1.000e+00    1.000e+00    1.000e-00  
  3.9000e-08    1.000e+00    1.000e+00    1.000e+00    1.000e-00  
  4.0000e-08    1.000e+00    1.000e+00    1.000e+00    1.000e-00  
  4.1000e-08    1.000e+00    1.000e+00    1.000e+00    1.000e-00  
  4.2000e-08    1.000e+00    1.000e+00    1.000e+00    1.000e-00  
  4.3000e-08    1.000e+00    1.000e+00    1.000e+00    1.000e-00  
  4.4000e-08    1.000e+00    1.000e+00    1.000e+00    1.000e-00  
  4.5000e-08    1.000e+00    1.000e+00    1.000e+00    1.000e-00  
  4.6000e-08    1.000e+00    1.000e+00    1.000e+00    1.000e-00  
  4.7000e-08    1.000e+00    1.000e+00    1.000e+00    1.000e-00  
  4.8000e-08    1.000e+00    1.000e+00    1.000e+00    1.000e-00  
  4.9000e-08    1.000e+00    1.000e+00    1.000e+00    1.000e-00  
  5.0000e-08    1.000e+00    1.000e+00    1.000e+00    1.000e-00  
  5.1000e-08    1.000e+00    1.000e+00    1.000e+00    1.000e-00  
  5.2000e-08    1.000e+00    1.000e+00    1.000e+00    1.000e-00  
  5.3000e-08    1.000e+00    5.000e-01    1.000e+00    9.999e-01  
  5.4000e-08    1.000e+00    0.000e+00    1.000e+00   -1.934e-05  
  5.5000e-08    1.000e+00    0.000e+00    1.000e+00    0.000e+00  
  5.6000e-08    1.000e+00    0.000e+00    1.000e+00    0.000e+00  
  5.7000e-08    1.000e+00    0.000e+00    1.000e+00    0.000e+00  
  5.8000e-08    1.000e+00    0.000e+00    1.000e+00    0.000e+00  
  5.9000e-08    1.000e+00    0.000e+00    1.000e+00    0.000e+00  
  6.0000e-08    1.000e+00    0.000e+00    1.000e+00    0.000e+00  
  6.1000e-08    1.000e+00    0.000e+00    1.000e+00    0.000e+00  
  6.2000e-08    1.000e+00    0.000e+00    1.000e+00    0.000e+00  
  6.3000e-08    1.000e+00    0.000e+00    1.000e+00    0.000e+00  
  6.4000e-08    1.000e+00    0.000e+00    1.000e+00    0.000e+00  
  6.5000e-08    1.000e+00    0.000e+00    1.000e+00   -5.026e-07  
  6.6000e-08    1.000e+00    0.000e+00    1.000e+00    0.000e+00  
  6.7000e-08    1.000e+00    0.000e+00    1.000e+00    0.000e+00  
  6.8000e-08    1.000e+00    0.000e+00    1.000e+00    0.000e+00  
  6.9000e-08    1.000e+00    0.000e+00    1.000e+00    0.000e+00  
  7.0000e-08    1.000e+00    0.000e+00    1.000e+00    0.000e+00  
  7.1000e-08    1.000e+00    0.000e+00    1.000e+00    0.000e+00  
  7.2000e-08    1.000e+00    0.000e+00    1.000e+00    0.000e+00  
  7.3000e-08    5.000e-01    0.000e+00    1.000e+00    3.795e-01  
  7.4000e-08    0.000e+00    0.000e+00    1.000e+00    1.000e-00  
  7.5000e-08    0.000e+00    0.000e+00    1.000e+00    1.000e-00  
  7.6000e-08    0.000e+00    0.000e+00    1.000e+00    1.000e-00  
  7.7000e-08    0.000e+00    0.000e+00    1.000e+00    1.000e-00  
  7.8000e-08    0.000e+00    0.000e+00    1.000e+00    1.000e-00  
  7.9000e-08    0.000e+00    0.000e+00    1.000e+00    1.000e-00  
  8.0000e-08    0.000e+00    0.000e+00    1.000e+00    1.000e-00  
  8.1000e-08    0.000e+00    0.000e+00    1.000e+00    1.000e-00  
  8.2000e-08    0.000e+00    0.000e+00    1.000e+00    1.000e-00  
  8.3000e-08    0.000e+00    0.000e+00    1.000e+00    1.000e-00  
  8.4000e-08    0.000e+00    0.000e+00    1.000e+00    1.000e-00  
  8.5000e-08    0.000e+00    0.000e+00    1.000e+00    1.000e-00  
  8.6000e-08    0.000e+00    0.000e+00    1.000e+00    1.000e-00  
  8.7000e-08    0.000e+00    0.000e+00    1.000e+00    1.000e-00  
  8.8000e-08    0.000e+00    0.000e+00    1.000e+00    1.000e-00  
  8.9000e-08    0.000e+00    0.000e+00    1.000e+00    1.000e-00  
  9.0000e-08    0.000e+00    0.000e+00    1.000e+00    1.000e-00  
  9.1000e-08    0.000e+00    0.000e+00    1.000e+00    1.000e-00  
  9.2000e-08    0.000e+00    0.000e+00    1.000e+00    1.000e-00  
  9.3000e-08    0.000e+00    0.000e+00    1.000e+00    1.000e-00  
  9.4000e-08    0.000e+00    0.000e+00    1.000e+00    1.000e-00  
  9.5000e-08    0.000e+00    0.000e+00    1.000e+00    1.000e-00  
  9.6000e-08    0.000e+00    0.000e+00    1.000e+00    1.000e-00  
  9.7000e-08    0.000e+00    0.000e+00    1.000e+00    1.000e-00  
  9.8000e-08    0.000e+00    0.000e+00    1.000e+00    1.000e-00  
  9.9000e-08    0.000e+00    0.000e+00    1.000e+00    1.000e-00  
  1.0000e-07    0.000e+00    0.000e+00    1.000e+00    1.000e-00  
  1.0100e-07    5.000e-01    5.000e-01    1.000e+00    1.000e-00  
  1.0200e-07    1.000e-00    1.000e-00    1.000e+00    1.000e+00  
  1.0300e-07    1.000e+00    1.000e+00    1.000e+00    1.000e-00  
  1.0400e-07    1.000e+00    1.000e+00    1.000e+00    1.000e-00  
  1.0500e-07    1.000e+00    1.000e+00    1.000e+00    1.000e-00  
  1.0600e-07    1.000e+00    1.000e+00    1.000e+00    1.000e-00  
  1.0700e-07    1.000e+00    1.000e+00    1.000e+00    1.000e-00  
  1.0800e-07    1.000e+00    1.000e+00    1.000e+00    1.000e-00  
  1.0900e-07    1.000e+00    1.000e+00    1.000e+00    1.000e-00  
  1.1000e-07    1.000e+00    1.000e+00    1.000e+00    1.000e-00  
  1.1100e-07    1.000e+00    1.000e+00    1.000e+00    1.000e-00  
  1.1200e-07    1.000e+00    1.000e+00    1.000e+00    1.000e-00  
  1.1300e-07    1.000e+00    1.000e+00    1.000e+00    1.000e-00  
  1.1400e-07    1.000e+00    1.000e+00    1.000e+00    1.000e-00  
  1.1500e-07    1.000e+00    1.000e+00    1.000e+00    1.000e-00  
  1.1600e-07    1.000e+00    1.000e+00    1.000e+00    1.000e-00  
  1.1700e-07    1.000e+00    1.000e+00    1.000e+00    1.000e-00  
  1.1800e-07    1.000e+00    1.000e+00    1.000e+00    1.000e-00  
  1.1900e-07    1.000e+00    1.000e+00    1.000e+00    1.000e-00  
  1.2000e-07    1.000e+00    1.000e+00    1.000e+00    1.000e-00  
  1.2100e-07    1.000e+00    1.000e+00    1.000e+00    1.000e-00  
  1.2200e-07    1.000e+00    1.000e+00    1.000e+00    1.000e-00  
  1.2300e-07    1.000e+00    1.000e+00    1.000e+00    1.000e-00  
  1.2400e-07    1.000e+00    1.000e+00    1.000e+00    1.000e-00  
  1.2500e-07    1.000e+00    1.000e+00    1.000e+00    1.000e-00  
  1.2600e-07    1.000e+00    1.000e+00    1.000e+00    1.000e-00  
  1.2700e-07    1.000e+00    1.000e+00    1.000e+00    1.000e-00  
  1.2800e-07    1.000e+00    1.000e+00    1.000e+00    1.000e-00  
  1.2900e-07    1.000e+00    1.000e+00    1.000e+00    1.000e-00  
  1.3000e-07    1.000e+00    1.000e+00    1.000e+00    1.000e-00  
  1.3100e-07    1.000e+00    1.000e+00    1.000e+00    1.000e-00  
  1.3200e-07    1.000e+00    1.000e+00    1.000e+00    1.000e-00  
  1.3300e-07    1.000e+00    1.000e+00    1.000e+00    1.000e-00  
  1.3400e-07    1.000e+00    1.000e+00    1.000e+00    1.000e-00  
  1.3500e-07    1.000e+00    1.000e+00    1.000e+00    1.000e-00  
  1.3600e-07    1.000e+00    1.000e+00    1.000e+00    1.000e-00  
  1.3700e-07    1.000e+00    1.000e+00    1.000e+00    1.000e-00  
  1.3800e-07    1.000e+00    1.000e+00    1.000e+00    1.000e-00  
  1.3900e-07    1.000e+00    1.000e+00    1.000e+00    1.000e-00  
  1.4000e-07    1.000e+00    1.000e+00    1.000e+00    1.000e-00  
  1.4100e-07    1.000e+00    1.000e+00    1.000e+00    1.000e-00  
  1.4200e-07    1.000e+00    1.000e+00    1.000e+00    1.000e-00  
  1.4300e-07    1.000e+00    1.000e+00    1.000e+00    1.000e-00  
  1.4400e-07    1.000e+00    1.000e+00    1.000e+00    1.000e-00  
  1.4500e-07    1.000e+00    1.000e+00    1.000e+00    1.000e-00  
  1.4600e-07    1.000e+00    1.000e+00    1.000e+00    1.000e-00  
  1.4700e-07    1.000e+00    1.000e+00    1.000e+00    1.000e-00  
  1.4800e-07    1.000e+00    1.000e+00    1.000e+00    1.000e-00  
  1.4900e-07    1.000e+00    1.000e+00    1.000e+00    1.000e-00  
  1.5000e-07    1.000e+00    1.000e+00    1.000e+00    1.000e-00  
  1.5100e-07    1.000e+00    1.000e+00    1.000e+00    1.000e-00  
  1.5200e-07    1.000e+00    1.000e+00    1.000e+00    1.000e-00  
  1.5300e-07    1.000e+00    5.000e-01    1.000e+00    9.999e-01  
  1.5400e-07    1.000e+00    0.000e+00    1.000e+00    1.966e-04  
  1.5500e-07    1.000e+00    0.000e+00    1.000e+00    0.000e+00  
  1.5600e-07    1.000e+00    0.000e+00    1.000e+00    6.782e-07  
  1.5700e-07    1.000e+00    0.000e+00    1.000e+00    0.000e+00  
  1.5800e-07    1.000e+00    0.000e+00    1.000e+00   -7.185e-07  
  1.5900e-07    1.000e+00    0.000e+00    1.000e+00   -1.417e-06  
  1.6000e-07    1.000e+00    0.000e+00    1.000e+00   -1.220e-06  
  1.6100e-07    1.000e+00    0.000e+00    1.000e+00   -1.002e-06  
  1.6200e-07    1.000e+00    0.000e+00    1.000e+00   -7.836e-07  
  1.6300e-07    1.000e+00    0.000e+00    1.000e+00   -5.655e-07  
  1.6400e-07    1.000e+00    0.000e+00    1.000e+00    0.000e+00  
  1.6500e-07    1.000e+00    0.000e+00    1.000e+00    0.000e+00  
  1.6600e-07    1.000e+00    0.000e+00    1.000e+00    0.000e+00  
  1.6700e-07    1.000e+00    0.000e+00    1.000e+00    0.000e+00  
  1.6800e-07    1.000e+00    0.000e+00    1.000e+00    5.248e-07  
  1.6900e-07    1.000e+00    0.000e+00    1.000e+00    7.429e-07  
  1.7000e-07    1.000e+00    0.000e+00    1.000e+00    8.456e-07  
  1.7100e-07    1.000e+00    0.000e+00    1.000e+00    0.000e+00  
  1.7200e-07    1.000e+00    0.000e+00    1.000e+00   -1.430e-06  
  1.7300e-07    5.000e-01    0.000e+00    1.000e+00    3.835e-01  
  1.7400e-07    0.000e+00    0.000e+00    1.000e+00    1.000e-00  
  1.7500e-07    0.000e+00    0.000e+00    1.000e+00    1.000e-00  
  1.7600e-07    0.000e+00    0.000e+00    1.000e+00    1.000e-00  
  1.7700e-07    0.000e+00    0.000e+00    1.000e+00    1.000e-00  
  1.7800e-07    0.000e+00    0.000e+00    1.000e+00    1.000e-00  
  1.7900e-07    0.000e+00    0.000e+00    1.000e+00    1.000e-00  
  1.8000e-07    0.000e+00    0.000e+00    1.000e+00    1.000e-00  
  1.8100e-07    0.000e+00    0.000e+00    1.000e+00    1.000e-00  
  1.8200e-07    0.000e+00    0.000e+00    1.000e+00    1.000e-00  
  1.8300e-07    0.000e+00    0.000e+00    1.000e+00    1.000e-00  
  1.8400e-07    0.000e+00    0.000e+00    1.000e+00    1.000e-00  
  1.8500e-07    0.000e+00    0.000e+00    1.000e+00    1.000e-00  
  1.8600e-07    0.000e+00    0.000e+00    1.000e+00    1.000e-00  
  1.8700e-07    0.000e+00    0.000e+00    1.000e+00    1.000e-00  
  1.8800e-07    0.000e+00    0.000e+00    1.000e+00    1.000e-00  
  1.8900e-07    0.000e+00    0.000e+00    1.000e+00    1.000e-00  
  1.9000e-07    0.000e+00    0.000e+00    1.000e+00    1.000e-00  
  1.9100e-07    0.000e+00    0.000e+00    1.000e+00    1.000e-00  
  1.9200e-07    0.000e+00    0.000e+00    1.000e+00    1.000e-00  
  1.9300e-07    0.000e+00    0.000e+00    1.000e+00    1.000e-00  
  1.9400e-07    0.000e+00    0.000e+00    1.000e+00    1.000e-00  
  1.9500e-07    0.000e+00    0.000e+00    1.000e+00    1.000e-00  
  1.9600e-07    0.000e+00    0.000e+00    1.000e+00    1.000e-00  
  1.9700e-07    0.000e+00    0.000e+00    1.000e+00    1.000e-00  
  1.9800e-07    0.000e+00    0.000e+00    1.000e+00    1.000e-00  
  1.9900e-07    0.000e+00    0.000e+00    1.000e+00    1.000e-00  
  2.0000e-07    0.000e+00    0.000e+00    1.000e+00    1.000e-00  
  2.0100e-07    5.000e-01    5.000e-01    1.000e+00    1.000e-00  
  2.0200e-07    1.000e+00    1.000e+00    1.000e+00    1.000e-00  
  2.0300e-07    1.000e+00    1.000e+00    1.000e+00    1.000e-00  
  2.0400e-07    1.000e+00    1.000e+00    1.000e+00    1.000e-00  
  2.0500e-07    1.000e+00    1.000e+00    1.000e+00    1.000e-00  
  2.0600e-07    1.000e+00    1.000e+00    1.000e+00    1.000e-00  
  2.0700e-07    1.000e+00    1.000e+00    1.000e+00    1.000e-00  
  2.0800e-07    1.000e+00    1.000e+00    1.000e+00    1.000e-00  
  2.0900e-07    1.000e+00    1.000e+00    1.000e+00    1.000e-00  
  2.1000e-07    1.000e+00    1.000e+00    1.000e+00    1.000e-00  
  2.1100e-07    1.000e+00    1.000e+00    1.000e+00    1.000e-00  
  2.1200e-07    1.000e+00    1.000e+00    1.000e+00    1.000e-00  
  2.1300e-07    1.000e+00    1.000e+00    1.000e+00    1.000e-00  
  2.1400e-07    1.000e+00    1.000e+00    1.000e+00    1.000e-00  
  2.1500e-07    1.000e+00    1.000e+00    1.000e+00    1.000e-00  
  2.1600e-07    1.000e+00    1.000e+00    1.000e+00    1.000e-00  
  2.1700e-07    1.000e+00    1.000e+00    1.000e+00    1.000e-00  
  2.1800e-07    1.000e+00    1.000e+00    1.000e+00    1.000e-00  
  2.1900e-07    1.000e+00    1.000e+00    1.000e+00    1.000e-00  
  2.2000e-07    1.000e+00    1.000e+00    1.000e+00    1.000e-00  
  2.2100e-07    1.000e+00    1.000e+00    1.000e+00    1.000e-00  
  2.2200e-07    1.000e+00    1.000e+00    1.000e+00    1.000e-00  
  2.2300e-07    1.000e+00    1.000e+00    1.000e+00    1.000e-00  
  2.2400e-07    1.000e+00    1.000e+00    1.000e+00    1.000e-00  
  2.2500e-07    1.000e+00    1.000e+00    1.000e+00    1.000e-00  
  2.2600e-07    1.000e+00    1.000e+00    1.000e+00    1.000e-00  
  2.2700e-07    1.000e+00    1.000e+00    1.000e+00    1.000e-00  
  2.2800e-07    1.000e+00    1.000e+00    1.000e+00    1.000e-00  
  2.2900e-07    1.000e+00    1.000e+00    1.000e+00    1.000e-00  
  2.3000e-07    1.000e+00    1.000e+00    1.000e+00    1.000e-00  
  2.3100e-07    1.000e+00    1.000e+00    1.000e+00    1.000e-00  
  2.3200e-07    1.000e+00    1.000e+00    1.000e+00    1.000e-00  
  2.3300e-07    1.000e+00    1.000e+00    1.000e+00    1.000e-00  
  2.3400e-07    1.000e+00    1.000e+00    1.000e+00    1.000e-00  
  2.3500e-07    1.000e+00    1.000e+00    1.000e+00    1.000e-00  
  2.3600e-07    1.000e+00    1.000e+00    1.000e+00    1.000e-00  
  2.3700e-07    1.000e+00    1.000e+00    1.000e+00    1.000e-00  
  2.3800e-07    1.000e+00    1.000e+00    1.000e+00    1.000e-00  
  2.3900e-07    1.000e+00    1.000e+00    1.000e+00    1.000e-00  
  2.4000e-07    1.000e+00    1.000e+00    1.000e+00    1.000e-00  
  2.4100e-07    1.000e+00    1.000e+00    1.000e+00    1.000e-00  
  2.4200e-07    1.000e+00    1.000e+00    1.000e+00    1.000e-00  
  2.4300e-07    1.000e+00    1.000e+00    1.000e+00    1.000e-00  
  2.4400e-07    1.000e+00    1.000e+00    1.000e+00    1.000e-00  
  2.4500e-07    1.000e+00    1.000e+00    1.000e+00    1.000e-00  
  2.4600e-07    1.000e+00    1.000e+00    1.000e+00    1.000e-00  
